T19AC 419:799 SEGGER J-Link V4.82 Log File (0000ms, 2775ms total)
T19AC 419:799 DLL Compiled: Mar 10 2014 19:07:45 (0000ms, 2775ms total)
T19AC 419:799 Logging started @ 2014-04-02 13:42 (0000ms, 2775ms total)
T19AC 419:799 JLINK_ExecCommand("Device = AT91SAM4SD32B", ...)Device "ATSAM4SD32B" selected (2048 KB flash, 160 KB RAM).  returns 0x00 (0002ms, 2777ms total)
T19AC 419:801 JLINK_TIF_Select(JLINKARM_TIF_JTAG)  returns 0x00 (0002ms, 2779ms total)
T19AC 419:803 JLINK_GetIdData(...) >0x2F8 JTAG>TotalIRLen = 4, IRPrint = 0x01 >0x30 JTAG> >0x210 JTAG> >0x70 JTAG> >0x40 JTAG> >0x40 JTAG> >0x40 JTAG> >0x48 JTAG> >0x78 JTAG> >0x40 JTAG> >0x30 JTAG> >0x40 JTAG> >0x40 JTAG> >0x30 JTAG> >0x40 JTAG> >0x48 JTAG>Found Cortex-M4 r0p1, Little endian. >0x1D0 JTAG> >0x1D8 JTAG> >0x1D8 JTAG>FPUnit: 6 code (BP) slots and 2 literal slots >0x1D8 JTAG> >0x1D8 JTAG> >0x1D0 JTAG> >0x1D8 JTAG>TPIU fitted. >0x1D8 JTAG> >0x1D8 JTAG> ScanLen=4 NumDevices=1 aId[0]=0x4BA00477
 aIrRead[0]=0 aScanLen[0]=0 aScanRead[0]=0 (0020ms, 2799ms total)
T19AC 419:823 JLINK_ConfigJTAG(IRPre = 0, DRPre = 0) (0000ms, 2799ms total)
T19AC 419:823 JLINK_SetSpeed(0) >0x2F8 JTAG>TotalIRLen = 4, IRPrint = 0x01 >0x30 JTAG> >0x210 JTAG> >0x70 JTAG> >0x40 JTAG> >0x40 JTAG> >0x40 JTAG> >0x48 JTAG> >0x78 JTAG> >0x40 JTAG> >0x30 JTAG> >0x40 JTAG> >0x40 JTAG> >0x30 JTAG> >0x40 JTAG> >0x48 JTAG>Found Cortex-M4 r0p1, Little endian. >0x1D0 JTAG> >0x1D8 JTAG> >0x1D8 JTAG>FPUnit: 6 code (BP) slots and 2 literal slots >0x1D8 JTAG> >0x1D8 JTAG> >0x1D0 JTAG> >0x1D8 JTAG>TPIU fitted. >0x1D8 JTAG> >0x1D8 JTAG> (0020ms, 2819ms total)
T19AC 419:843 JLINK_Connect() >0x2F8 JTAG>TotalIRLen = 4, IRPrint = 0x01 >0x30 JTAG> >0x210 JTAG> >0x70 JTAG> >0x40 JTAG> >0x40 JTAG> >0x40 JTAG> >0x48 JTAG> >0x78 JTAG> >0x40 JTAG> >0x30 JTAG> >0x40 JTAG> >0x40 JTAG> >0x30 JTAG> >0x40 JTAG> >0x48 JTAG>Found Cortex-M4 r0p1, Little endian. >0x1D0 JTAG> >0x1D8 JTAG> >0x1D8 JTAG>FPUnit: 6 code (BP) slots and 2 literal slots >0x1D8 JTAG> >0x1D8 JTAG> >0x1D0 JTAG> >0x1D8 JTAG>TPIU fitted. >0x1D8 JTAG> >0x1D8 JTAG>  returns 0x00 (0021ms, 2840ms total)
T19AC 419:864 JLINK_GetDebugInfo(0x100) -- Value=0xE00FF003  returns 0x00 (0000ms, 2840ms total)
T19AC 419:864 JLINK_ReadMemU8(0xE00FFFF0, 0x0001 Items, ...) -- CPU is running >0x1D8 JTAG> -- Data:  0D  returns 0x01 (0002ms, 2842ms total)
T19AC 419:866 JLINK_ReadMemU8(0xE00FFFF4, 0x0001 Items, ...) -- CPU is running >0x1D8 JTAG> -- Data:  10  returns 0x01 (0001ms, 2843ms total)
T19AC 419:867 JLINK_ReadMemU8(0xE00FFFF8, 0x0001 Items, ...) -- CPU is running >0x1D8 JTAG> -- Data:  05  returns 0x01 (0001ms, 2844ms total)
T19AC 419:868 JLINK_ReadMemU8(0xE00FFFFC, 0x0001 Items, ...) -- CPU is running >0x1D8 JTAG> -- Data:  B1  returns 0x01 (0001ms, 2845ms total)
T19AC 419:869 JLINK_ReadMemU8(0xE00FFFD0, 0x0001 Items, ...) -- CPU is running >0x1D8 JTAG> -- Data:  04  returns 0x01 (0001ms, 2846ms total)
T19AC 419:870 JLINK_ReadMemU8(0xE00FFFD4, 0x0001 Items, ...) -- CPU is running >0x1D8 JTAG> -- Data:  00  returns 0x01 (0002ms, 2848ms total)
T19AC 419:872 JLINK_ReadMemU8(0xE00FFFD8, 0x0001 Items, ...) -- CPU is running >0x1D8 JTAG> -- Data:  00  returns 0x01 (0001ms, 2849ms total)
T19AC 419:873 JLINK_ReadMemU8(0xE00FFFDC, 0x0001 Items, ...) -- CPU is running >0x1D8 JTAG> -- Data:  00  returns 0x01 (0001ms, 2850ms total)
T19AC 419:874 JLINK_ReadMemU8(0xE00FFFE0, 0x0001 Items, ...) -- CPU is running >0x1D8 JTAG> -- Data:  C4  returns 0x01 (0001ms, 2851ms total)
T19AC 419:875 JLINK_ReadMemU8(0xE00FFFE4, 0x0001 Items, ...) -- CPU is running >0x1D8 JTAG> -- Data:  B4  returns 0x01 (0001ms, 2852ms total)
T19AC 419:876 JLINK_ReadMemU8(0xE00FFFE8, 0x0001 Items, ...) -- CPU is running >0x1D8 JTAG> -- Data:  0B  returns 0x01 (0001ms, 2853ms total)
T19AC 419:877 JLINK_ReadMemU8(0xE00FFFEC, 0x0001 Items, ...) -- CPU is running >0x1D8 JTAG> -- Data:  00  returns 0x01 (0001ms, 2854ms total)
T19AC 419:878 JLINK_ReadMemU32(0xE00FF000, 0x0001 Items, ...) -- CPU is running >0x1D8 JTAG> -- Data:  03 F0 F0 FF  returns 0x01 (0001ms, 2855ms total)
T19AC 419:879 JLINK_ReadMemU8(0xE000EFF0, 0x0001 Items, ...) -- CPU is running >0x1D8 JTAG> -- Data:  0D  returns 0x01 (0001ms, 2856ms total)
T19AC 419:880 JLINK_ReadMemU8(0xE000EFF4, 0x0001 Items, ...) -- CPU is running >0x1D8 JTAG> -- Data:  E0  returns 0x01 (0001ms, 2857ms total)
T19AC 419:881 JLINK_ReadMemU8(0xE000EFF8, 0x0001 Items, ...) -- CPU is running >0x1D8 JTAG> -- Data:  05  returns 0x01 (0002ms, 2859ms total)
T19AC 419:883 JLINK_ReadMemU8(0xE000EFFC, 0x0001 Items, ...) -- CPU is running >0x1D8 JTAG> -- Data:  B1  returns 0x01 (0001ms, 2860ms total)
T19AC 419:884 JLINK_ReadMemU8(0xE000EFD0, 0x0001 Items, ...) -- CPU is running >0x1D8 JTAG> -- Data:  04  returns 0x01 (0001ms, 2861ms total)
T19AC 419:885 JLINK_ReadMemU8(0xE000EFD4, 0x0001 Items, ...) -- CPU is running >0x1D8 JTAG> -- Data:  00  returns 0x01 (0001ms, 2862ms total)
T19AC 419:886 JLINK_ReadMemU8(0xE000EFD8, 0x0001 Items, ...) -- CPU is running >0x1D8 JTAG> -- Data:  00  returns 0x01 (0001ms, 2863ms total)
T19AC 419:887 JLINK_ReadMemU8(0xE000EFDC, 0x0001 Items, ...) -- CPU is running >0x1D8 JTAG> -- Data:  00  returns 0x01 (0001ms, 2864ms total)
T19AC 419:888 JLINK_ReadMemU8(0xE000EFE0, 0x0001 Items, ...) -- CPU is running >0x1D8 JTAG> -- Data:  00  returns 0x01 (0001ms, 2865ms total)
T19AC 419:889 JLINK_ReadMemU8(0xE000EFE4, 0x0001 Items, ...) -- CPU is running >0x1D8 JTAG> -- Data:  B0  returns 0x01 (0001ms, 2866ms total)
T19AC 419:890 JLINK_ReadMemU8(0xE000EFE8, 0x0001 Items, ...) -- CPU is running >0x1D8 JTAG> -- Data:  0B  returns 0x01 (0001ms, 2867ms total)
T19AC 419:891 JLINK_ReadMemU8(0xE000EFEC, 0x0001 Items, ...) -- CPU is running >0x1D8 JTAG> -- Data:  00  returns 0x01 (0001ms, 2868ms total)
T19AC 419:892 JLINK_ReadMemU32(0xE00FF004, 0x0001 Items, ...) -- CPU is running >0x1D8 JTAG> -- Data:  03 20 F0 FF  returns 0x01 (0001ms, 2869ms total)
T19AC 419:893 JLINK_ReadMemU8(0xE0001FF0, 0x0001 Items, ...) -- CPU is running >0x1D8 JTAG> -- Data:  0D  returns 0x01 (0001ms, 2870ms total)
T19AC 419:894 JLINK_ReadMemU8(0xE0001FF4, 0x0001 Items, ...) -- CPU is running >0x1D8 JTAG> -- Data:  E0  returns 0x01 (0001ms, 2871ms total)
T19AC 419:895 JLINK_ReadMemU8(0xE0001FF8, 0x0001 Items, ...) -- CPU is running >0x1D8 JTAG> -- Data:  05  returns 0x01 (0001ms, 2872ms total)
T19AC 419:896 JLINK_ReadMemU8(0xE0001FFC, 0x0001 Items, ...) -- CPU is running >0x1D8 JTAG> -- Data:  B1  returns 0x01 (0001ms, 2873ms total)
T19AC 419:897 JLINK_ReadMemU8(0xE0001FD0, 0x0001 Items, ...) -- CPU is running >0x1D8 JTAG> -- Data:  04  returns 0x01 (0002ms, 2875ms total)
T19AC 419:899 JLINK_ReadMemU8(0xE0001FD4, 0x0001 Items, ...) -- CPU is running >0x1D8 JTAG> -- Data:  00  returns 0x01 (0001ms, 2876ms total)
T19AC 419:900 JLINK_ReadMemU8(0xE0001FD8, 0x0001 Items, ...) -- CPU is running >0x1D8 JTAG> -- Data:  00  returns 0x01 (0001ms, 2877ms total)
T19AC 419:901 JLINK_ReadMemU8(0xE0001FDC, 0x0001 Items, ...) -- CPU is running >0x1D8 JTAG> -- Data:  00  returns 0x01 (0001ms, 2878ms total)
T19AC 419:902 JLINK_ReadMemU8(0xE0001FE0, 0x0001 Items, ...) -- CPU is running >0x1D8 JTAG> -- Data:  02  returns 0x01 (0001ms, 2879ms total)
T19AC 419:903 JLINK_ReadMemU8(0xE0001FE4, 0x0001 Items, ...) -- CPU is running >0x1D8 JTAG> -- Data:  B0  returns 0x01 (0001ms, 2880ms total)
T19AC 419:904 JLINK_ReadMemU8(0xE0001FE8, 0x0001 Items, ...) -- CPU is running >0x1D8 JTAG> -- Data:  3B  returns 0x01 (0001ms, 2881ms total)
T19AC 419:905 JLINK_ReadMemU8(0xE0001FEC, 0x0001 Items, ...) -- CPU is running >0x1D8 JTAG> -- Data:  00  returns 0x01 (0001ms, 2882ms total)
T19AC 419:906 JLINK_ReadMemU32(0xE00FF008, 0x0001 Items, ...) -- CPU is running >0x1D8 JTAG> -- Data:  03 30 F0 FF  returns 0x01 (0001ms, 2883ms total)
T19AC 419:907 JLINK_ReadMemU8(0xE0002FF0, 0x0001 Items, ...) -- CPU is running >0x1D8 JTAG> -- Data:  0D  returns 0x01 (0001ms, 2884ms total)
T19AC 419:908 JLINK_ReadMemU8(0xE0002FF4, 0x0001 Items, ...) -- CPU is running >0x1D8 JTAG> -- Data:  E0  returns 0x01 (0001ms, 2885ms total)
T19AC 419:909 JLINK_ReadMemU8(0xE0002FF8, 0x0001 Items, ...) -- CPU is running >0x1D8 JTAG> -- Data:  05  returns 0x01 (0001ms, 2886ms total)
T19AC 419:910 JLINK_ReadMemU8(0xE0002FFC, 0x0001 Items, ...) -- CPU is running >0x1D8 JTAG> -- Data:  B1  returns 0x01 (0001ms, 2887ms total)
T19AC 419:911 JLINK_ReadMemU8(0xE0002FD0, 0x0001 Items, ...) -- CPU is running >0x1D8 JTAG> -- Data:  04  returns 0x01 (0002ms, 2889ms total)
T19AC 419:913 JLINK_ReadMemU8(0xE0002FD4, 0x0001 Items, ...) -- CPU is running >0x1D8 JTAG> -- Data:  00  returns 0x01 (0001ms, 2890ms total)
T19AC 419:914 JLINK_ReadMemU8(0xE0002FD8, 0x0001 Items, ...) -- CPU is running >0x1D8 JTAG> -- Data:  00  returns 0x01 (0001ms, 2891ms total)
T19AC 419:915 JLINK_ReadMemU8(0xE0002FDC, 0x0001 Items, ...) -- CPU is running >0x1D8 JTAG> -- Data:  00  returns 0x01 (0001ms, 2892ms total)
T19AC 419:916 JLINK_ReadMemU8(0xE0002FE0, 0x0001 Items, ...) -- CPU is running >0x1D8 JTAG> -- Data:  03  returns 0x01 (0001ms, 2893ms total)
T19AC 419:917 JLINK_ReadMemU8(0xE0002FE4, 0x0001 Items, ...) -- CPU is running >0x1D8 JTAG> -- Data:  B0  returns 0x01 (0001ms, 2894ms total)
T19AC 419:918 JLINK_ReadMemU8(0xE0002FE8, 0x0001 Items, ...) -- CPU is running >0x1D8 JTAG> -- Data:  2B  returns 0x01 (0001ms, 2895ms total)
T19AC 419:919 JLINK_ReadMemU8(0xE0002FEC, 0x0001 Items, ...) -- CPU is running >0x1D8 JTAG> -- Data:  00  returns 0x01 (0001ms, 2896ms total)
T19AC 419:920 JLINK_ReadMemU32(0xE00FF00C, 0x0001 Items, ...) -- CPU is running >0x1D8 JTAG> -- Data:  03 10 F0 FF  returns 0x01 (0001ms, 2897ms total)
T19AC 419:921 JLINK_ReadMemU8(0xE0000FF0, 0x0001 Items, ...) -- CPU is running >0x1D8 JTAG> -- Data:  0D  returns 0x01 (0001ms, 2898ms total)
T19AC 419:922 JLINK_ReadMemU8(0xE0000FF4, 0x0001 Items, ...) -- CPU is running >0x1D8 JTAG> -- Data:  E0  returns 0x01 (0001ms, 2899ms total)
T19AC 419:923 JLINK_ReadMemU8(0xE0000FF8, 0x0001 Items, ...) -- CPU is running >0x1D8 JTAG> -- Data:  05  returns 0x01 (0001ms, 2900ms total)
T19AC 419:924 JLINK_ReadMemU8(0xE0000FFC, 0x0001 Items, ...) -- CPU is running >0x1D8 JTAG> -- Data:  B1  returns 0x01 (0001ms, 2901ms total)
T19AC 419:925 JLINK_ReadMemU8(0xE0000FD0, 0x0001 Items, ...) -- CPU is running >0x1D8 JTAG> -- Data:  04  returns 0x01 (0001ms, 2902ms total)
T19AC 419:926 JLINK_ReadMemU8(0xE0000FD4, 0x0001 Items, ...) -- CPU is running >0x1D8 JTAG> -- Data:  00  returns 0x01 (0002ms, 2904ms total)
T19AC 419:928 JLINK_ReadMemU8(0xE0000FD8, 0x0001 Items, ...) -- CPU is running >0x1D8 JTAG> -- Data:  00  returns 0x01 (0001ms, 2905ms total)
T19AC 419:929 JLINK_ReadMemU8(0xE0000FDC, 0x0001 Items, ...) -- CPU is running >0x1D8 JTAG> -- Data:  00  returns 0x01 (0001ms, 2906ms total)
T19AC 419:930 JLINK_ReadMemU8(0xE0000FE0, 0x0001 Items, ...) -- CPU is running >0x1D8 JTAG> -- Data:  01  returns 0x01 (0001ms, 2907ms total)
T19AC 419:931 JLINK_ReadMemU8(0xE0000FE4, 0x0001 Items, ...) -- CPU is running >0x1D8 JTAG> -- Data:  B0  returns 0x01 (0001ms, 2908ms total)
T19AC 419:932 JLINK_ReadMemU8(0xE0000FE8, 0x0001 Items, ...) -- CPU is running >0x1D8 JTAG> -- Data:  3B  returns 0x01 (0001ms, 2909ms total)
T19AC 419:933 JLINK_ReadMemU8(0xE0000FEC, 0x0001 Items, ...) -- CPU is running >0x1D8 JTAG> -- Data:  00  returns 0x01 (0001ms, 2910ms total)
T19AC 419:934 JLINK_ReadMemU32(0xE00FF010, 0x0001 Items, ...) -- CPU is running >0x1D8 JTAG> -- Data:  03 10 F4 FF  returns 0x01 (0001ms, 2911ms total)
T19AC 419:935 JLINK_ReadMemU8(0xE0040FF0, 0x0001 Items, ...) -- CPU is running >0x1D8 JTAG> -- Data:  0D  returns 0x01 (0001ms, 2912ms total)
T19AC 419:936 JLINK_ReadMemU8(0xE0040FF4, 0x0001 Items, ...) -- CPU is running >0x1D8 JTAG> -- Data:  90  returns 0x01 (0001ms, 2913ms total)
T19AC 419:937 JLINK_ReadMemU8(0xE0040FF8, 0x0001 Items, ...) -- CPU is running >0x1D8 JTAG> -- Data:  05  returns 0x01 (0001ms, 2914ms total)
T19AC 419:938 JLINK_ReadMemU8(0xE0040FFC, 0x0001 Items, ...) -- CPU is running >0x1D8 JTAG> -- Data:  B1  returns 0x01 (0001ms, 2915ms total)
T19AC 419:939 JLINK_ReadMemU8(0xE0040FD0, 0x0001 Items, ...) -- CPU is running >0x1D8 JTAG> -- Data:  04  returns 0x01 (0001ms, 2916ms total)
T19AC 419:940 JLINK_ReadMemU8(0xE0040FD4, 0x0001 Items, ...) -- CPU is running >0x1D8 JTAG> -- Data:  00  returns 0x01 (0001ms, 2917ms total)
T19AC 419:941 JLINK_ReadMemU8(0xE0040FD8, 0x0001 Items, ...) -- CPU is running >0x1D8 JTAG> -- Data:  00  returns 0x01 (0002ms, 2919ms total)
T19AC 419:943 JLINK_ReadMemU8(0xE0040FDC, 0x0001 Items, ...) -- CPU is running >0x1D8 JTAG> -- Data:  00  returns 0x01 (0001ms, 2920ms total)
T19AC 419:944 JLINK_ReadMemU8(0xE0040FE0, 0x0001 Items, ...) -- CPU is running >0x1D8 JTAG> -- Data:  A1  returns 0x01 (0001ms, 2921ms total)
T19AC 419:945 JLINK_ReadMemU8(0xE0040FE4, 0x0001 Items, ...) -- CPU is running >0x1D8 JTAG> -- Data:  B9  returns 0x01 (0001ms, 2922ms total)
T19AC 419:946 JLINK_ReadMemU8(0xE0040FE8, 0x0001 Items, ...) -- CPU is running >0x1D8 JTAG> -- Data:  0B  returns 0x01 (0001ms, 2923ms total)
T19AC 419:947 JLINK_ReadMemU8(0xE0040FEC, 0x0001 Items, ...) -- CPU is running >0x1D8 JTAG> -- Data:  00  returns 0x01 (0001ms, 2924ms total)
T19AC 419:948 JLINK_ReadMemU32(0xE00FF014, 0x0001 Items, ...) -- CPU is running >0x1D8 JTAG> -- Data:  02 20 F4 FF  returns 0x01 (0002ms, 2926ms total)
T19AC 419:950 JLINK_ReadMemU32(0xE00FF018, 0x0001 Items, ...) -- CPU is running >0x1D8 JTAG> -- Data:  00 00 00 00  returns 0x01 (0001ms, 2927ms total)
T19AC 419:951 JLINK_ReadMem (0xE0001000, 0x0004 Bytes, ...) -- CPU is running >0x1D8 JTAG> -- Data:  01 00 00 40  returns 0x00 (0001ms, 2928ms total)
T19AC 419:952 JLINK_ReadMem (0xE0001000, 0x0004 Bytes, ...) -- CPU is running >0x1D8 JTAG> -- Data:  01 00 00 40  returns 0x00 (0001ms, 2929ms total)
T19AC 419:953 JLINK_ReadMem (0xE0001028, 0x0004 Bytes, ...) -- CPU is running >0x1D8 JTAG> -- Data:  00 00 00 00  returns 0x00 (0001ms, 2930ms total)
T19AC 419:954 JLINK_WriteMem(0xE0001028, 0x0004 Bytes, ...) -- Data:  00 01 00 00 -- CPU is running >0x1D0 JTAG>  returns 0x04 (0001ms, 2931ms total)
T19AC 419:955 JLINK_ReadMem (0xE0001028, 0x0004 Bytes, ...) -- CPU is running >0x1D8 JTAG> -- Data:  00 00 00 00  returns 0x00 (0001ms, 2932ms total)
T19AC 419:956 JLINK_ReadMem (0xE0001038, 0x0004 Bytes, ...) -- CPU is running >0x1D8 JTAG> -- Data:  00 02 00 00  returns 0x00 (0001ms, 2933ms total)
T19AC 419:957 JLINK_WriteMem(0xE0001038, 0x0004 Bytes, ...) -- Data:  00 03 00 00 -- CPU is running >0x1D0 JTAG>  returns 0x04 (0001ms, 2934ms total)
T19AC 419:958 JLINK_ReadMem (0xE0001038, 0x0004 Bytes, ...) -- CPU is running >0x1D8 JTAG> -- Data:  00 03 00 00  returns 0x00 (0002ms, 2936ms total)
T19AC 419:960 JLINK_ReadMem (0xE0001048, 0x0004 Bytes, ...) -- CPU is running >0x1D8 JTAG> -- Data:  00 00 00 00  returns 0x00 (0001ms, 2937ms total)
T19AC 419:961 JLINK_WriteMem(0xE0001048, 0x0004 Bytes, ...) -- Data:  00 01 00 00 -- CPU is running >0x1D0 JTAG>  returns 0x04 (0001ms, 2938ms total)
T19AC 419:962 JLINK_ReadMem (0xE0001048, 0x0004 Bytes, ...) -- CPU is running >0x1D8 JTAG> -- Data:  00 00 00 00  returns 0x00 (0001ms, 2939ms total)
T19AC 419:963 JLINK_ReadMem (0xE0001058, 0x0004 Bytes, ...) -- CPU is running >0x1D8 JTAG> -- Data:  00 00 00 00  returns 0x00 (0001ms, 2940ms total)
T19AC 419:964 JLINK_WriteMem(0xE0001058, 0x0004 Bytes, ...) -- Data:  00 01 00 00 -- CPU is running >0x1D0 JTAG>  returns 0x04 (0001ms, 2941ms total)
T19AC 419:965 JLINK_ReadMem (0xE0001058, 0x0004 Bytes, ...) -- CPU is running >0x1D8 JTAG> -- Data:  00 00 00 00  returns 0x00 (0001ms, 2942ms total)
T19AC 419:966 JLINK_ReadMem (0xE0001024, 0x0004 Bytes, ...) -- CPU is running >0x1D8 JTAG> -- Data:  00 00 00 00  returns 0x00 (0001ms, 2943ms total)
T19AC 419:967 JLINK_WriteMem(0xE0001024, 0x0004 Bytes, ...) -- Data:  1F 00 00 00 -- CPU is running >0x1D0 JTAG>  returns 0x04 (0001ms, 2944ms total)
T19AC 419:968 JLINK_ReadMem (0xE0001024, 0x0004 Bytes, ...) -- CPU is running >0x1D8 JTAG> -- Data:  0F 00 00 00  returns 0x00 (0002ms, 2946ms total)
T19AC 419:970 JLINK_ReadMem (0xE0001034, 0x0004 Bytes, ...) -- CPU is running >0x1D8 JTAG> -- Data:  00 00 00 00  returns 0x00 (0001ms, 2947ms total)
T19AC 419:971 JLINK_WriteMem(0xE0001034, 0x0004 Bytes, ...) -- Data:  1F 00 00 00 -- CPU is running >0x1D0 JTAG>  returns 0x04 (0001ms, 2948ms total)
T19AC 419:972 JLINK_ReadMem (0xE0001034, 0x0004 Bytes, ...) -- CPU is running >0x1D8 JTAG> -- Data:  0F 00 00 00  returns 0x00 (0001ms, 2949ms total)
T19AC 419:973 JLINK_ReadMem (0xE0001044, 0x0004 Bytes, ...) -- CPU is running >0x1D8 JTAG> -- Data:  00 00 00 00  returns 0x00 (0001ms, 2950ms total)
T19AC 419:974 JLINK_WriteMem(0xE0001044, 0x0004 Bytes, ...) -- Data:  1F 00 00 00 -- CPU is running >0x1D0 JTAG>  returns 0x04 (0001ms, 2951ms total)
T19AC 419:975 JLINK_ReadMem (0xE0001044, 0x0004 Bytes, ...) -- CPU is running >0x1D8 JTAG> -- Data:  0F 00 00 00  returns 0x00 (0001ms, 2952ms total)
T19AC 419:976 JLINK_ReadMem (0xE0001054, 0x0004 Bytes, ...) -- CPU is running >0x1D8 JTAG> -- Data:  00 00 00 00  returns 0x00 (0001ms, 2953ms total)
T19AC 419:977 JLINK_WriteMem(0xE0001054, 0x0004 Bytes, ...) -- Data:  1F 00 00 00 -- CPU is running >0x1D0 JTAG>  returns 0x04 (0001ms, 2954ms total)
T19AC 419:978 JLINK_ReadMem (0xE0001054, 0x0004 Bytes, ...) -- CPU is running >0x1D8 JTAG> -- Data:  0F 00 00 00  returns 0x00 (0001ms, 2955ms total)
T19AC 419:979 JLINK_ReadMem (0xE0001028, 0x0004 Bytes, ...) -- CPU is running >0x1D8 JTAG> -- Data:  00 00 00 00  returns 0x00 (0001ms, 2956ms total)
T19AC 419:980 JLINK_ReadMem (0xE0001038, 0x0004 Bytes, ...) -- CPU is running >0x1D8 JTAG> -- Data:  00 03 00 00  returns 0x00 (0001ms, 2957ms total)
T19AC 419:981 JLINK_ReadMem (0xE0001048, 0x0004 Bytes, ...) -- CPU is running >0x1D8 JTAG> -- Data:  00 00 00 00  returns 0x00 (0002ms, 2959ms total)
T19AC 419:983 JLINK_ReadMem (0xE0001058, 0x0004 Bytes, ...) -- CPU is running >0x1D8 JTAG> -- Data:  00 00 00 00  returns 0x00 (0001ms, 2960ms total)
T19AC 419:984 JLINK_WriteMem(0xE0001020, 0x0004 Bytes, ...) -- Data:  00 00 00 00 -- CPU is running >0x1D0 JTAG>  returns 0x04 (0001ms, 2961ms total)
T19AC 419:985 JLINK_WriteMem(0xE0001024, 0x0004 Bytes, ...) -- Data:  00 00 00 00 -- CPU is running >0x1D0 JTAG>  returns 0x04 (0001ms, 2962ms total)
T19AC 419:986 JLINK_WriteMem(0xE0001028, 0x0004 Bytes, ...) -- Data:  00 00 00 00 -- CPU is running >0x1D0 JTAG>  returns 0x04 (0001ms, 2963ms total)
T19AC 419:987 JLINK_WriteMem(0xE0001030, 0x0004 Bytes, ...) -- Data:  00 00 00 00 -- CPU is running >0x1D0 JTAG>  returns 0x04 (0001ms, 2964ms total)
T19AC 419:988 JLINK_WriteMem(0xE0001034, 0x0004 Bytes, ...) -- Data:  00 00 00 00 -- CPU is running >0x1D0 JTAG>  returns 0x04 (0001ms, 2965ms total)
T19AC 419:989 JLINK_WriteMem(0xE0001038, 0x0004 Bytes, ...) -- Data:  00 00 00 00 -- CPU is running >0x1D0 JTAG>  returns 0x04 (0001ms, 2966ms total)
T19AC 419:990 JLINK_WriteMem(0xE0001040, 0x0004 Bytes, ...) -- Data:  00 00 00 00 -- CPU is running >0x1D0 JTAG>  returns 0x04 (0001ms, 2967ms total)
T19AC 419:991 JLINK_WriteMem(0xE0001044, 0x0004 Bytes, ...) -- Data:  00 00 00 00 -- CPU is running >0x1D0 JTAG>  returns 0x04 (0001ms, 2968ms total)
T19AC 419:992 JLINK_WriteMem(0xE0001048, 0x0004 Bytes, ...) -- Data:  00 00 00 00 -- CPU is running >0x1D0 JTAG>  returns 0x04 (0001ms, 2969ms total)
T19AC 419:993 JLINK_WriteMem(0xE0001050, 0x0004 Bytes, ...) -- Data:  00 00 00 00 -- CPU is running >0x1D0 JTAG>  returns 0x04 (0001ms, 2970ms total)
T19AC 419:994 JLINK_WriteMem(0xE0001054, 0x0004 Bytes, ...) -- Data:  00 00 00 00 -- CPU is running >0x1D0 JTAG>  returns 0x04 (0001ms, 2971ms total)
T19AC 419:995 JLINK_WriteMem(0xE0001058, 0x0004 Bytes, ...) -- Data:  00 00 00 00 -- CPU is running >0x1D0 JTAG>  returns 0x04 (0001ms, 2972ms total)
T19AC 419:998 JLINK_WriteVectorCatch(0x00000001) -- CPU is running >0x1D8 JTAG> -- CPU is running >0x1D0 JTAG>  returns 0x00 (0002ms, 2974ms total)
T19AC 420:000 JLINK_Reset() >0x218 JTAG> >0x170 JTAG> >0x1598 JTAG> >0x288 JTAG> >0x260 JTAG> >0x1D8 JTAG> >0x1D0 JTAG> >0x2C8 JTAG> >0x1E8 JTAG> >0x1E8 JTAG> >0x218 JTAG> >0x218 JTAG> >0x170 JTAG> >0x1598 JTAG> >0x1D0 JTAG> >0x260 JTAG> >0x170 JTAG> >0x1598 JTAG> >0x1D0 JTAG> >0x1D8 JTAG> >0x1D8 JTAG> (0053ms, 3027ms total)
T19AC 420:053 JLINK_BeginDownload(Flags = 0x00) (0000ms, 3027ms total)
T19AC 420:053 JLINK_JTAG_GetDeviceID(DeviceIndex = 0)  returns 0x4BA00477 (0000ms, 3027ms total)
T19AC 420:053 JLINK_ReadMemU32(0x400E0740, 0x0001 Items, ...) >0x1D8 JTAG> -- Data:  E0 0E 97 29  returns 0x01 (0001ms, 3028ms total)
T19AC 420:057 JLINK_ReadMem (0x00405000, 0x1000 Bytes, ...) >0xED98 JTAG> -- Updating C cache (4096 bytes @ 0x00405000) -- Read from C cache (4096 bytes @ 0x00405000) -- Data:  AA BB CC DD EE FF 00 11 22 33 44 55 66 77 88 01 ...  returns 0x00 (0081ms, 3109ms total)
T19AC 420:139 JLINK_WriteMem(0x00400000, 0x0200 Bytes, ...) -- Data:  B8 4A 00 20 F5 3A 40 00 F1 3A 40 00 F1 3A 40 00 ...  returns 0x200 (0000ms, 3109ms total)
T19AC 420:139 JLINK_WriteMem(0x00400200, 0x0200 Bytes, ...) -- Data:  FF 30 C1 B2 19 70 70 47 4F F0 00 00 70 47 00 BF ...  returns 0x200 (0000ms, 3109ms total)
T19AC 420:139 JLINK_WriteMem(0x00400400, 0x0200 Bytes, ...) -- Data:  01 04 38 BF 00 24 40 F6 A8 46 C2 F2 00 06 4F F0 ...  returns 0x200 (0000ms, 3109ms total)
T19AC 420:139 JLINK_WriteMem(0x00400600, 0x0200 Bytes, ...) -- Data:  11 10 08 1A 4B B9 40 F2 94 13 C2 F2 00 03 4F F0 ...  returns 0x200 (0000ms, 3109ms total)
T19AC 420:139 JLINK_WriteMem(0x00400800, 0x0200 Bytes, ...) -- Data:  C2 F2 00 03 1C 70 40 F6 90 40 C2 F2 00 00 04 80 ...  returns 0x200 (0000ms, 3109ms total)
T19AC 420:139 JLINK_WriteMem(0x00400A00, 0x0200 Bytes, ...) -- Data:  98 47 01 46 20 46 40 F6 C1 02 C0 F2 40 02 90 47 ...  returns 0x200 (0000ms, 3109ms total)
T19AC 420:139 JLINK_WriteMem(0x00400C00, 0x0200 Bytes, ...) -- Data:  82 68 00 2A 53 D0 10 46 51 88 88 4B 98 47 38 E0 ...  returns 0x200 (0000ms, 3109ms total)
T19AC 420:139 JLINK_WriteMem(0x00400E00, 0x0200 Bytes, ...) -- Data:  5A 88 01 2A 0D D1 40 F6 4E 70 C2 F2 00 00 01 88 ...  returns 0x200 (0000ms, 3109ms total)
T19AC 420:140 JLINK_WriteMem(0x00401000, 0x0200 Bytes, ...) -- Data:  C0 F2 40 01 88 47 20 79 43 F2 F5 12 C0 F2 40 02 ...  returns 0x200 (0000ms, 3110ms total)
T19AC 420:140 JLINK_WriteMem(0x00401200, 0x0200 Bytes, ...) -- Data:  B1 02 C2 F2 00 02 90 47 08 BD 00 BF 0A B1 41 66 ...  returns 0x200 (0000ms, 3110ms total)
T19AC 420:140 JLINK_WriteMem(0x00401400, 0x0200 Bytes, ...) -- Data:  01 04 04 FA 00 F7 30 46 4F F0 C0 51 3A 46 41 F2 ...  returns 0x200 (0000ms, 3110ms total)
T19AC 420:140 JLINK_WriteMem(0x00401600, 0x0200 Bytes, ...) -- Data:  F9 E7 58 1E CB D1 F3 E7 88 B1 4F F4 80 61 C4 F2 ...  returns 0x200 (0000ms, 3110ms total)
T19AC 420:140 JLINK_WriteMem(0x00401800, 0x0200 Bytes, ...) -- Data:  00 02 4F F0 01 01 11 70 BF F3 5F 8F 62 B6 1E E0 ...  returns 0x200 (0000ms, 3110ms total)
T19AC 420:140 JLINK_WriteMem(0x00401A00, 0x0200 Bytes, ...) -- Data:  0A 6B 02 92 02 9B 43 F0 4F 00 02 90 02 9A 22 F0 ...  returns 0x200 (0000ms, 3110ms total)
T19AC 420:140 JLINK_WriteMem(0x00401C00, 0x0200 Bytes, ...) -- Data:  C2 F2 00 01 4F F0 01 02 0A 70 BF F3 5F 8F 62 B6 ...  returns 0x200 (0000ms, 3110ms total)
T19AC 420:140 JLINK_WriteMem(0x00401E00, 0x0200 Bytes, ...) -- Data:  93 53 99 45 26 BF 99 46 4F F0 00 0C 4F F0 01 0C ...  returns 0x200 (0000ms, 3110ms total)
T19AC 420:140 JLINK_WriteMem(0x00402000, 0x0200 Bytes, ...) -- Data:  0A E0 4F F0 01 00 07 E0 4F F0 00 00 04 E0 4F F0 ...  returns 0x200 (0000ms, 3110ms total)
T19AC 420:140 JLINK_WriteMem(0x00402200, 0x0200 Bytes, ...) -- Data:  04 98 40 F0 4F 03 04 93 04 9A 22 F0 04 00 04 90 ...  returns 0x200 (0000ms, 3110ms total)
T19AC 420:140 JLINK_WriteMem(0x00402400, 0x0200 Bytes, ...) -- Data:  07 D8 00 BF 0D 98 00 F1 01 00 0D 90 0D 9A 13 2A ...  returns 0x200 (0000ms, 3110ms total)
T19AC 420:140 JLINK_WriteMem(0x00402600, 0x0200 Bytes, ...) -- Data:  00 BF 15 9A 02 F1 01 02 15 92 15 9B 13 2B F7 D9 ...  returns 0x200 (0000ms, 3110ms total)
T19AC 420:140 JLINK_WriteMem(0x00402800, 0x0200 Bytes, ...) -- Data:  03 C0 03 F1 01 03 83 42 ED D3 40 46 41 F6 9D 42 ...  returns 0x200 (0000ms, 3110ms total)
T19AC 420:140 JLINK_WriteMem(0x00402A00, 0x0200 Bytes, ...) -- Data:  11 F0 80 0F 0E D0 60 7C 6F F3 C7 10 60 74 E1 68 ...  returns 0x200 (0000ms, 3110ms total)
T19AC 420:140 JLINK_WriteMem(0x00402C00, 0x0200 Bytes, ...) -- Data:  25 30 4F F0 00 00 29 90 29 9A 13 2A 00 F2 A0 81 ...  returns 0x200 (0000ms, 3110ms total)
T19AC 420:140 JLINK_WriteMem(0x00402E00, 0x0200 Bytes, ...) -- Data:  A8 47 40 F6 61 22 C0 F2 40 02 90 47 63 68 23 F0 ...  returns 0x200 (0000ms, 3110ms total)
T19AC 420:140 JLINK_WriteMem(0x00403000, 0x0200 Bytes, ...) -- Data:  7F 00 70 47 4F F0 00 00 70 47 00 BF 4F F4 80 43 ...  returns 0x200 (0000ms, 3110ms total)
T19AC 420:140 JLINK_WriteMem(0x00403200, 0x0200 Bytes, ...) -- Data:  EF F3 10 81 D1 F1 01 01 38 BF 00 21 72 B6 BF F3 ...  returns 0x200 (0000ms, 3110ms total)
T19AC 420:140 JLINK_WriteMem(0x00403400, 0x0200 Bytes, ...) -- Data:  90 47 4F F0 01 00 07 E0 4F F0 00 00 04 E0 4F F0 ...  returns 0x200 (0000ms, 3110ms total)
T19AC 420:140 JLINK_WriteMem(0x00403600, 0x0200 Bytes, ...) -- Data:  01 02 0A 70 BF F3 5F 8F 62 B6 10 F0 80 0F 0C D1 ...  returns 0x200 (0000ms, 3110ms total)
T19AC 420:140 JLINK_WriteMem(0x00403800, 0x0200 Bytes, ...) -- Data:  20 64 C4 F2 0E 04 A0 42 0C BF 01 F5 00 51 01 F5 ...  returns 0x200 (0000ms, 3110ms total)
T19AC 420:140 JLINK_WriteMem(0x00403A00, 0x0200 Bytes, ...) -- Data:  A8 47 04 46 68 B9 BD F8 02 20 02 F1 10 02 92 B2 ...  returns 0x200 (0000ms, 3110ms total)
T19AC 420:140 JLINK_WriteMem(0x00403C00, 0x0200 Bytes, ...) -- Data:  C0 F2 40 00 80 47 FE E7 00 2C E1 D0 45 F8 04 1F ...  returns 0x200 (0000ms, 3110ms total)
T19AC 420:140 JLINK_WriteMem(0x00403E00, 0x0200 Bytes, ...) -- Data:  C2 F3 02 11 03 68 23 FA 01 F3 03 60 70 47 00 BF ...  returns 0x200 (0000ms, 3110ms total)
T19AC 420:140 JLINK_WriteMem(0x00404000, 0x1000 Bytes, ...) -- Data:  00 03 18 60 00 BF 31 88 01 EB 09 02 B2 F5 00 6F ...  returns 0x1000 (0000ms, 3110ms total)
T19AC 420:140 JLINK_WriteMem(0x00405000, 0x1000 Bytes, ...) -- Data:  AA BB CC DD EE FF 00 11 22 33 44 55 66 77 88 01 ...  returns 0x1000 (0000ms, 3110ms total)
T19AC 420:145 JLINK_EndDownload() -- -------------------------------------- -- Start of determining dirty areas -- End of determining dirty areas -- Start of preparing flash programming -- Calculating RAM usage -- RAM usage = 3908 Bytes -- Preserving registers -- Preparing memory -- Determining CPU clock frequency -- CPU clock frequency: 4228 kHz -- CPU frequency = 4228 kHz -- Preparing target -- Downloading RAMCode -- Using alternate TurboMode RAMCode -- Checking target RAM -- Preparing RAMCode
 -- End of preparing flash programmingCPU is running at low speed (4228 kHz). -- CPU is running at 4228 kHz. -- Start of comparing flash -- CRC check was estimated as fastest method -- Comparing range 0x400000 - 0x403FFF (32 Sectors, 16 KB), using multi-block CRC calculation -- All CRCs match -- Comparing range 0x404000 - 0x405FFF (2 Sectors, 8 KB), using multi-block CRC calculation -- All CRCs match -- Comparing range 0x400000 - 0x403FFF (32 Sectors, 16 KB), using alternative multi-block CRC calculation
 -- All CRCs match -- Comparing range 0x404000 - 0x405FFF (2 Sectors, 8 KB), using alternative multi-block CRC calculation -- All CRCs match -- End of comparing flash -- Start of erasing sectors -- End of erasing sectors -- Start of flash programming -- End of flash programming -- Start of verifying flash -- End of verifying flash -- Start of restoring -- Restore RAMCode -- Restore content of target memory -- Restore target -- Restore memory -- Restore content of registers -- End of restoring
 -- Flash download into internal flash skipped. Flash contents already match -- Flash download into internal flash skipped. Flash contents already match  returns 0x00 (0666ms, 3776ms total)
T19AC 420:833 JLINK_WriteMem(0x400E0A04, 0x0004 Bytes, ...) -- Data:  0B 01 00 5A >0x1D0 JTAG>  returns 0x04 (0001ms, 3777ms total)
T19AC 420:834 JLINK_ReadMem (0x400E0A08, 0x0004 Bytes, ...) >0x1D8 JTAG> -- Data:  01 00 00 00  returns 0x00 (0002ms, 3779ms total)
T19AC 420:836 JLINK_WriteMem(0x400E0A04, 0x0004 Bytes, ...) -- Data:  0C 02 00 5A >0x1D0 JTAG>  returns 0x04 (0001ms, 3780ms total)
T19AC 420:837 JLINK_ReadMem (0x400E0A08, 0x0004 Bytes, ...) >0x1D8 JTAG> -- Data:  01 00 00 00  returns 0x00 (0001ms, 3781ms total)
T19AC 420:838 JLINK_WriteMem(0x400E0A04, 0x0004 Bytes, ...) -- Data:  0B 01 00 5A >0x1D0 JTAG>  returns 0x04 (0002ms, 3783ms total)
T19AC 420:840 JLINK_ReadMem (0x400E0A08, 0x0004 Bytes, ...) >0x1D8 JTAG> -- Data:  01 00 00 00  returns 0x00 (0001ms, 3784ms total)
T19AC 420:841 JLINK_WriteMem(0x400E0A04, 0x0004 Bytes, ...) -- Data:  0C 02 00 5A >0x1D0 JTAG>  returns 0x04 (0001ms, 3785ms total)
T19AC 420:842 JLINK_ReadMem (0x400E0A08, 0x0004 Bytes, ...) >0x1D8 JTAG> -- Data:  01 00 00 00  returns 0x00 (0002ms, 3787ms total)
T19AC 420:844 JLINK_JTAG_GetDeviceID(DeviceIndex = 0)  returns 0x4BA00477 (0000ms, 3787ms total)
T19AC 420:844 JLINK_ReadMemU32(0x400E0740, 0x0001 Items, ...) >0x1D8 JTAG> -- Data:  E0 0E 97 29  returns 0x01 (0001ms, 3788ms total)
T07E8 420:902 JLINK_ReadReg(R15 (PC))  returns 0x00403AF4 (0000ms, 3788ms total)
T07E8 420:903 JLINK_WriteVectorCatch(0x00000001) >0x1D8 JTAG>  returns 0x00 (0001ms, 3789ms total)
T07E8 420:904 JLINK_Reset() >0x288 JTAG> >0x260 JTAG> >0x1D8 JTAG> >0x1D0 JTAG> >0x2C8 JTAG> >0x1E8 JTAG> >0x1E8 JTAG> >0x1E8 JTAG> >0x1E8 JTAG> >0x1E8 JTAG> >0x1E8 JTAG> >0x1E8 JTAG> >0x1E8 JTAG> >0x1E8 JTAG> >0x1E8 JTAG> >0x1E8 JTAG> >0x218 JTAG> >0x218 JTAG> >0x170 JTAG> >0x1598 JTAG> >0x1D0 JTAG> >0x260 JTAG> >0x170 JTAG> >0x1598 JTAG> >0x1D0 JTAG> >0x1D8 JTAG> >0x1D8 JTAG> (0053ms, 3842ms total)
T14F8 420:965 JLINK_IsHalted()  returns TRUE (0000ms, 3842ms total)
T14F8 420:965 JLINK_GetMOEs(...) >0x1D8 JTAG> >0x1D0 JTAG>  returns 0x01 (0002ms, 3844ms total)
T14F8 420:967 JLINK_ReadReg(R15 (PC))  returns 0x00403AF4 (0000ms, 3844ms total)
T14F8 420:967 JLINK_BeginDownload(Flags = 0x00) (0000ms, 3844ms total)
T07E8 420:977 JLINK_ReadReg(R15 (PC))  returns 0x00403AF4 (0000ms, 3844ms total)
T07E8 420:977 JLINK_ReadReg(R13 (SP))  returns 0x20004AB8 (0000ms, 3844ms total)
T07E8 420:984 JLINK_ReadReg(R0)  returns 0x400E1400 (0000ms, 3844ms total)
T07E8 420:984 JLINK_ReadReg(R1)  returns 0x40C00000 (0000ms, 3844ms total)
T07E8 420:984 JLINK_ReadReg(R2)  returns 0xA5000005 (0000ms, 3844ms total)
T07E8 420:984 JLINK_ReadReg(R3)  returns 0x20001AAC (0000ms, 3844ms total)
T07E8 420:984 JLINK_ReadReg(R4)  returns 0x00000000 (0000ms, 3844ms total)
T07E8 420:984 JLINK_ReadReg(R5)  returns 0xE000ED00 (0000ms, 3844ms total)
T07E8 420:984 JLINK_ReadReg(R6)  returns 0x20001230 (0000ms, 3844ms total)
T07E8 420:984 JLINK_ReadReg(R7)  returns 0x2000122C (0000ms, 3844ms total)
T07E8 420:984 JLINK_ReadReg(R8)  returns 0x20001A42 (0000ms, 3844ms total)
T07E8 420:984 JLINK_ReadReg(R9)  returns 0x000001F4 (0000ms, 3844ms total)
T07E8 420:984 JLINK_ReadReg(R10)  returns 0x00000000 (0000ms, 3844ms total)
T07E8 420:984 JLINK_ReadReg(R11)  returns 0x00000000 (0000ms, 3844ms total)
T07E8 420:984 JLINK_ReadReg(R12)  returns 0x00000003 (0000ms, 3844ms total)
T07E8 420:984 JLINK_ReadReg(R13 (SP))  returns 0x20004AB8 (0000ms, 3844ms total)
T07E8 420:984 JLINK_ReadReg(R14)  returns 0xFFFFFFFF (0000ms, 3844ms total)
T07E8 420:984 JLINK_ReadReg(R15 (PC))  returns 0x00403AF4 (0000ms, 3844ms total)
T07E8 420:984 JLINK_ReadReg(XPSR)  returns 0x01000000 (0000ms, 3844ms total)
T07E8 420:984 JLINK_ReadReg(MSP)  returns 0x20004AB8 (0000ms, 3844ms total)
T07E8 420:984 JLINK_ReadReg(PSP)  returns 0x4EEE2788 (0000ms, 3844ms total)
T07E8 420:984 JLINK_ReadReg(APSR)  returns 0x00000000 (0000ms, 3844ms total)
T07E8 420:984 JLINK_ReadReg(EPSR)  returns 0x01000000 (0000ms, 3844ms total)
T07E8 420:984 JLINK_ReadReg(IPSR)  returns 0x00000000 (0000ms, 3844ms total)
T07E8 420:984 JLINK_ReadReg(PRIMASK)  returns 0x00000000 (0000ms, 3844ms total)
T07E8 420:984 JLINK_ReadReg(BASEPRI)  returns 0x00000000 (0000ms, 3844ms total)
T07E8 420:984 JLINK_ReadReg(FAULTMASK)  returns 0x00000000 (0000ms, 3844ms total)
T07E8 420:984 JLINK_ReadReg(CONTROL)  returns 0x00000000 (0000ms, 3844ms total)
T07E8 421:004 JLINK_ReadReg(R15 (PC))  returns 0x00403AF4 (0000ms, 3844ms total)
T07E8 421:004 JLINK_EndDownload()  returns 0x00 (0000ms, 3844ms total)
T07E8 421:004 JLINK_WriteVectorCatch(0x00000001) >0x1D8 JTAG>  returns 0x00 (0001ms, 3845ms total)
T07E8 421:005 JLINK_Reset() >0x288 JTAG> >0x260 JTAG> >0x1D8 JTAG> >0x1D0 JTAG> >0x2C8 JTAG> >0x218 JTAG> >0x218 JTAG> >0x170 JTAG> >0x1598 JTAG> >0x1D0 JTAG> >0x260 JTAG> >0x170 JTAG> >0x1598 JTAG> >0x1D0 JTAG> >0x1D8 JTAG> >0x1D8 JTAG> (0041ms, 3886ms total)
T14F8 421:087 JLINK_IsHalted()  returns TRUE (0000ms, 3886ms total)
T14F8 421:087 JLINK_GetMOEs(...) >0x1D8 JTAG> >0x1D0 JTAG>  returns 0x01 (0002ms, 3888ms total)
T14F8 421:089 JLINK_ReadReg(R15 (PC))  returns 0x00403AF4 (0000ms, 3888ms total)
T14F8 421:089 JLINK_BeginDownload(Flags = 0x00) (0000ms, 3888ms total)
T07E8 421:096 JLINK_ReadReg(R15 (PC))  returns 0x00403AF4 (0000ms, 3888ms total)
T07E8 421:096 JLINK_ReadReg(R13 (SP))  returns 0x20004AB8 (0000ms, 3888ms total)
T07E8 421:096 JLINK_ReadReg(R0)  returns 0x400E1400 (0000ms, 3888ms total)
T07E8 421:096 JLINK_ReadReg(R1)  returns 0x40C00000 (0000ms, 3888ms total)
T07E8 421:096 JLINK_ReadReg(R2)  returns 0xA5000005 (0000ms, 3888ms total)
T07E8 421:096 JLINK_ReadReg(R3)  returns 0x20001AAC (0000ms, 3888ms total)
T07E8 421:096 JLINK_ReadReg(R4)  returns 0x00000000 (0000ms, 3888ms total)
T07E8 421:096 JLINK_ReadReg(R5)  returns 0xE000ED00 (0000ms, 3888ms total)
T07E8 421:096 JLINK_ReadReg(R6)  returns 0x20001230 (0000ms, 3888ms total)
T07E8 421:096 JLINK_ReadReg(R7)  returns 0x2000122C (0000ms, 3888ms total)
T07E8 421:096 JLINK_ReadReg(R8)  returns 0x20001A42 (0000ms, 3888ms total)
T07E8 421:096 JLINK_ReadReg(R9)  returns 0x000001F4 (0000ms, 3888ms total)
T07E8 421:096 JLINK_ReadReg(R10)  returns 0x00000000 (0000ms, 3888ms total)
T07E8 421:096 JLINK_ReadReg(R11)  returns 0x00000000 (0000ms, 3888ms total)
T07E8 421:096 JLINK_ReadReg(R12)  returns 0x00000003 (0000ms, 3888ms total)
T07E8 421:096 JLINK_ReadReg(R13 (SP))  returns 0x20004AB8 (0000ms, 3888ms total)
T07E8 421:096 JLINK_ReadReg(R14)  returns 0xFFFFFFFF (0000ms, 3888ms total)
T07E8 421:096 JLINK_ReadReg(R15 (PC))  returns 0x00403AF4 (0000ms, 3888ms total)
T07E8 421:096 JLINK_ReadReg(XPSR)  returns 0x01000000 (0000ms, 3888ms total)
T07E8 421:096 JLINK_ReadReg(MSP)  returns 0x20004AB8 (0000ms, 3888ms total)
T07E8 421:096 JLINK_ReadReg(PSP)  returns 0x4EEE2788 (0000ms, 3888ms total)
T07E8 421:096 JLINK_ReadReg(APSR)  returns 0x00000000 (0000ms, 3888ms total)
T07E8 421:096 JLINK_ReadReg(EPSR)  returns 0x01000000 (0000ms, 3888ms total)
T07E8 421:096 JLINK_ReadReg(IPSR)  returns 0x00000000 (0000ms, 3888ms total)
T07E8 421:096 JLINK_ReadReg(PRIMASK)  returns 0x00000000 (0000ms, 3888ms total)
T07E8 421:096 JLINK_ReadReg(BASEPRI)  returns 0x00000000 (0000ms, 3888ms total)
T07E8 421:096 JLINK_ReadReg(FAULTMASK)  returns 0x00000000 (0000ms, 3888ms total)
T07E8 421:096 JLINK_ReadReg(CONTROL)  returns 0x00000000 (0000ms, 3888ms total)
T19AC 421:813 JLINK_FindBP(Addr = 0x004045DE)  returns 0x00000000 (0000ms, 3888ms total)
T19AC 421:813 JLINK_SetBPEx(Addr = 0x004045DE, Type = 0xFFFFFFF2)  returns 0x00000001 (0000ms, 3888ms total)
T19AC 421:959 JLINK_FindBP(Addr = 0x00403AA6)  returns 0x00000000 (0000ms, 3888ms total)
T19AC 421:959 JLINK_SetBPEx(Addr = 0x00403AA6, Type = 0xFFFFFFF2)  returns 0x00000002 (0000ms, 3888ms total)
T19AC 421:969 JLINK_FindBP(Addr = 0x0040437A)  returns 0x00000000 (0000ms, 3888ms total)
T19AC 421:969 JLINK_SetBPEx(Addr = 0x0040437A, Type = 0xFFFFFFF2)  returns 0x00000003 (0000ms, 3888ms total)
T19AC 421:979 JLINK_FindBP(Addr = 0x004045BE)  returns 0x00000000 (0000ms, 3888ms total)
T19AC 421:979 JLINK_SetBPEx(Addr = 0x004045BE, Type = 0xFFFFFFF2)  returns 0x00000004 (0000ms, 3888ms total)
T19AC 421:989 JLINK_FindBP(Addr = 0x00404004)  returns 0x00000000 (0000ms, 3888ms total)
T19AC 421:990 JLINK_SetBPEx(Addr = 0x00404004, Type = 0xFFFFFFF2)  returns 0x00000005 (0000ms, 3889ms total)
T07E8 421:999 JLINK_ReadReg(R15 (PC)) >0x170 JTAG>  returns 0x00403AF4 (0001ms, 3890ms total)
T07E8 422:000 JLINK_FindBP(Addr = 0x00403F44)  returns 0x00000000 (0000ms, 3890ms total)
T07E8 422:000 JLINK_FindBP(Addr = 0x00403F44)  returns 0x00000000 (0000ms, 3890ms total)
T07E8 422:000 JLINK_SetBPEx(Addr = 0x00403F44, Type = 0xFFFFFF02)  returns 0x00000006 (0000ms, 3890ms total)
T07E8 422:000 JLINK_EndDownload()  returns 0x00 (0000ms, 3890ms total)
T07E8 422:000 JLINK_Go() >0x1D0 JTAG> >0x1D0 JTAG> >0x1D0 JTAG> >0x1D0 JTAG> >0x1D0 JTAG> >0x1D0 JTAG> >0x218 JTAG> >0x218 JTAG> (0008ms, 3898ms total)
T14F8 422:016 JLINK_IsHalted() >0x170 JTAG> >0x1598 JTAG>  returns TRUE (0008ms, 3906ms total)
T14F8 422:024 JLINK_GetMOEs(...) >0x1D8 JTAG> >0x1D0 JTAG>  returns 0x01 (0002ms, 3900ms total)
T14F8 422:026 JLINK_ReadReg(R15 (PC))  returns 0x00403F44 (0000ms, 3900ms total)
T14F8 422:026 JLINK_FindBP(Addr = 0x00403F44)  returns 0x00000006 (0000ms, 3900ms total)
T14F8 422:026 JLINK_ClrBPEx(BPHandle = 0x00000006)  returns 0x00 (0000ms, 3900ms total)
T14F8 422:026 JLINK_BeginDownload(Flags = 0x00) (0000ms, 3900ms total)
T07E8 422:028 JLINK_ReadReg(R15 (PC))  returns 0x00403F44 (0000ms, 3900ms total)
T07E8 422:028 JLINK_ReadReg(R13 (SP))  returns 0x20004AA8 (0000ms, 3900ms total)
T07E8 422:028 JLINK_ReadReg(R0)  returns 0x00403F45 (0000ms, 3900ms total)
T07E8 422:028 JLINK_ReadReg(R1)  returns 0x00000000 (0000ms, 3900ms total)
T07E8 422:028 JLINK_ReadReg(R2)  returns 0x00000000 (0000ms, 3900ms total)
T07E8 422:028 JLINK_ReadReg(R3)  returns 0x20001AAC (0000ms, 3900ms total)
T07E8 422:028 JLINK_ReadReg(R4)  returns 0x00000000 (0000ms, 3900ms total)
T07E8 422:028 JLINK_ReadReg(R5)  returns 0xE000ED00 (0000ms, 3900ms total)
T07E8 422:028 JLINK_ReadReg(R6)  returns 0x20001230 (0000ms, 3900ms total)
T07E8 422:028 JLINK_ReadReg(R7)  returns 0x2000122C (0000ms, 3900ms total)
T07E8 422:028 JLINK_ReadReg(R8)  returns 0x20001A42 (0000ms, 3900ms total)
T07E8 422:028 JLINK_ReadReg(R9)  returns 0x000001F4 (0000ms, 3900ms total)
T07E8 422:028 JLINK_ReadReg(R10)  returns 0x00000000 (0000ms, 3900ms total)
T07E8 422:028 JLINK_ReadReg(R11)  returns 0x00000000 (0000ms, 3900ms total)
T07E8 422:028 JLINK_ReadReg(R12)  returns 0x00000003 (0000ms, 3900ms total)
T07E8 422:028 JLINK_ReadReg(R13 (SP))  returns 0x20004AA8 (0000ms, 3900ms total)
T07E8 422:028 JLINK_ReadReg(R14)  returns 0x00403C07 (0000ms, 3900ms total)
T07E8 422:028 JLINK_ReadReg(R15 (PC))  returns 0x00403F44 (0000ms, 3900ms total)
T07E8 422:028 JLINK_ReadReg(XPSR)  returns 0x61000000 (0000ms, 3900ms total)
T07E8 422:028 JLINK_ReadReg(MSP)  returns 0x20004AA8 (0000ms, 3900ms total)
T07E8 422:028 JLINK_ReadReg(PSP)  returns 0x4EEE2788 (0000ms, 3900ms total)
T07E8 422:028 JLINK_ReadReg(APSR)  returns 0x60000000 (0000ms, 3900ms total)
T07E8 422:028 JLINK_ReadReg(EPSR)  returns 0x01000000 (0000ms, 3900ms total)
T07E8 422:028 JLINK_ReadReg(IPSR)  returns 0x00000000 (0000ms, 3900ms total)
T07E8 422:028 JLINK_ReadReg(PRIMASK)  returns 0x00000000 (0000ms, 3900ms total)
T07E8 422:028 JLINK_ReadReg(BASEPRI)  returns 0x00000000 (0000ms, 3900ms total)
T07E8 422:028 JLINK_ReadReg(FAULTMASK)  returns 0x00000000 (0000ms, 3900ms total)
T07E8 422:028 JLINK_ReadReg(CONTROL)  returns 0x00000000 (0000ms, 3900ms total)
T07E8 422:039 JLINK_ReadReg(R15 (PC))  returns 0x00403F44 (0000ms, 3900ms total)
T07E8 422:039 JLINK_EndDownload()  returns 0x00 (0000ms, 3900ms total)
T07E8 422:039 JLINK_Go() >0x1D0 JTAG> >0x218 JTAG> >0x218 JTAG> (0003ms, 3903ms total)
T14F8 422:047 JLINK_IsHalted() >0x170 JTAG>  returns FALSE (0000ms, 3903ms total)
T14F8 422:077 JLINK_IsHalted() >0x170 JTAG> >0x1598 JTAG>  returns TRUE (0008ms, 3911ms total)
T14F8 422:085 JLINK_GetMOEs(...) >0x1D8 JTAG> >0x1D0 JTAG>  returns 0x01 (0002ms, 3905ms total)
T14F8 422:087 JLINK_ReadReg(R15 (PC))  returns 0x004045BE (0000ms, 3905ms total)
T14F8 422:087 JLINK_BeginDownload(Flags = 0x00) (0000ms, 3905ms total)
T07E8 422:092 JLINK_ReadReg(R15 (PC))  returns 0x004045BE (0000ms, 3905ms total)
T07E8 422:092 JLINK_ReadReg(R13 (SP))  returns 0x20004830 (0000ms, 3905ms total)
T07E8 422:092 JLINK_ReadMem (0x20004A80, 0x0040 Bytes, ...) >0x548 JTAG> -- Updating C cache (64 bytes @ 0x20004A80) -- Read from C cache (64 bytes @ 0x20004A80) -- Data:  66 77 88 00 AA BB CC DD EE FF 00 11 22 33 44 55 ...  returns 0x00 (0002ms, 3907ms total)
T19AC 422:195 JLINK_ReadMem (0x004FF000, 0x1000 Bytes, ...) >0xED98 JTAG> -- Updating C cache (4096 bytes @ 0x004FF000) -- Read from C cache (4096 bytes @ 0x004FF000) -- Data:  FF FF FF FF FF FF FF FF FF FF FF FF FF FF FF FF ...  returns 0x00 (0081ms, 3988ms total)
T19AC 422:276 JLINK_ReadMem (0x00500000, 0x0200 Bytes, ...) >0x1F18 JTAG> -- Updating C cache (512 bytes @ 0x00500000) -- Read from C cache (512 bytes @ 0x00500000) -- Data:  FF FF FF FF FF FF FF FF FF FF FF FF FF FF FF FF ...  returns 0x00 (0011ms, 3999ms total)
T19AC 422:287 JLINK_ReadMem (0x00500200, 0x0200 Bytes, ...) >0x1F18 JTAG> -- Updating C cache (512 bytes @ 0x00500200) -- Read from C cache (512 bytes @ 0x00500200) -- Data:  FF FF FF FF FF FF FF FF FF FF FF FF FF FF FF FF ...  returns 0x00 (0011ms, 4010ms total)
T19AC 422:315 JLINK_ReadMem (0x40000000, 0x0708 Bytes, ...) >0x6950 JTAG> -- Data:  00 00 00 00 00 00 00 00 00 00 00 00 00 00 00 00 ...  returns 0x00 (0035ms, 4045ms total)
T19AC 422:353 JLINK_ReadMem (0x40000000, 0x0708 Bytes, ...) >0x6950 JTAG> -- Data:  00 00 00 00 00 00 00 00 00 00 00 00 00 00 00 00 ...  returns 0x00 (0036ms, 4081ms total)
T19AC 422:448 JLINK_ReadMem (0x40000708, 0x0190 Bytes, ...) >0x18A8 JTAG> -- Data:  00 00 00 00 00 00 00 00 00 00 00 00 00 00 00 00 ...  returns 0x00 (0009ms, 4090ms total)
T19AC 422:472 JLINK_ReadMem (0x40000898, 0x0252 Bytes, ...) >0x4610 JTAG> -- Data:  00 00 00 00 00 00 00 00 00 00 00 00 00 00 00 00 ...  returns 0x00 (0024ms, 4114ms total)
T19AC 425:708 JLINK_ReadMem (0x00500400, 0x0200 Bytes, ...) >0x1F18 JTAG> -- Updating C cache (512 bytes @ 0x00500400) -- Read from C cache (512 bytes @ 0x00500400) -- Data:  FF FF FF FF FF FF FF FF FF FF FF FF FF FF FF FF ...  returns 0x00 (0011ms, 4125ms total)
T19AC 425:719 JLINK_ReadMem (0x00500600, 0x0200 Bytes, ...) >0x1F18 JTAG> -- Updating C cache (512 bytes @ 0x00500600) -- Read from C cache (512 bytes @ 0x00500600) -- Data:  FF FF FF FF FF FF FF FF FF FF FF FF FF FF FF FF ...  returns 0x00 (0011ms, 4136ms total)
T19AC 425:730 JLINK_ReadMem (0x00500800, 0x0200 Bytes, ...) >0x1F18 JTAG> -- Updating C cache (512 bytes @ 0x00500800) -- Read from C cache (512 bytes @ 0x00500800) -- Data:  FF FF FF FF FF FF FF FF FF FF FF FF FF FF FF FF ...  returns 0x00 (0011ms, 4147ms total)
T19AC 425:741 JLINK_ReadMem (0x00500A00, 0x0200 Bytes, ...) >0x1F18 JTAG> -- Updating C cache (512 bytes @ 0x00500A00) -- Read from C cache (512 bytes @ 0x00500A00) -- Data:  FF FF FF FF FF FF FF FF FF FF FF FF FF FF FF FF ...  returns 0x00 (0011ms, 4158ms total)
T19AC 425:752 JLINK_ReadMem (0x00500C00, 0x0200 Bytes, ...) >0x1F18 JTAG> -- Updating C cache (512 bytes @ 0x00500C00) -- Read from C cache (512 bytes @ 0x00500C00) -- Data:  FF FF FF FF FF FF FF FF FF FF FF FF FF FF FF FF ...  returns 0x00 (0011ms, 4169ms total)
T19AC 425:763 JLINK_ReadMem (0x00500E00, 0x0200 Bytes, ...) >0x1F18 JTAG> -- Updating C cache (512 bytes @ 0x00500E00) -- Read from C cache (512 bytes @ 0x00500E00) -- Data:  FF FF FF FF FF FF FF FF FF FF FF FF FF FF FF FF ...  returns 0x00 (0011ms, 4180ms total)
T19AC 427:042 JLINK_ReadMem (0x00501000, 0x0200 Bytes, ...) >0x1F18 JTAG> -- Updating C cache (512 bytes @ 0x00501000) -- Read from C cache (512 bytes @ 0x00501000) -- Data:  FF FF FF FF FF FF FF FF FF FF FF FF FF FF FF FF ...  returns 0x00 (0011ms, 4191ms total)
T19AC 427:090 JLINK_ReadMem (0x00501200, 0x0200 Bytes, ...) >0x1F18 JTAG> -- Updating C cache (512 bytes @ 0x00501200) -- Read from C cache (512 bytes @ 0x00501200) -- Data:  FF FF FF FF FF FF FF FF FF FF FF FF FF FF FF FF ...  returns 0x00 (0011ms, 4202ms total)
T19AC 427:418 JLINK_ReadMem (0x00501400, 0x0200 Bytes, ...) >0x1F18 JTAG> -- Updating C cache (512 bytes @ 0x00501400) -- Read from C cache (512 bytes @ 0x00501400) -- Data:  FF FF FF FF FF FF FF FF FF FF FF FF FF FF FF FF ...  returns 0x00 (0011ms, 4213ms total)
T19AC 427:466 JLINK_ReadMem (0x00501600, 0x0200 Bytes, ...) >0x1F18 JTAG> -- Updating C cache (512 bytes @ 0x00501600) -- Read from C cache (512 bytes @ 0x00501600) -- Data:  FF FF FF FF FF FF FF FF FF FF FF FF FF FF FF FF ...  returns 0x00 (0011ms, 4224ms total)
T19AC 433:545 JLINK_ReadMem (0x005FE000, 0x1000 Bytes, ...) >0xED98 JTAG> -- Updating C cache (4096 bytes @ 0x005FE000) -- Read from C cache (4096 bytes @ 0x005FE000) -- Data:  FF FF FF FF FF FF FF FF FF FF FF FF FF FF FF FF ...  returns 0x00 (0081ms, 4305ms total)
T19AC 433:626 JLINK_ReadMem (0x005FF000, 0x1000 Bytes, ...) >0xED98 JTAG> -- Updating C cache (4096 bytes @ 0x005FF000) -- Read from C cache (4096 bytes @ 0x005FF000) -- Data:  FF FF FF FF FF FF FF FF FF FF FF FF FF FF FF FF ...  returns 0x00 (0081ms, 4386ms total)
T07E8 454:225 JLINK_Halt() >0x170 JTAG>  returns 0x00 (0001ms, 4387ms total)
T19AC 454:336 JLINK_FindBP(Addr = 0x004045DE)  returns 0x00000001 (0000ms, 4387ms total)
T19AC 454:336 JLINK_ClrBPEx(BPHandle = 0x00000001)  returns 0x00 (0000ms, 4387ms total)
T19AC 454:336 JLINK_FindBP(Addr = 0x00403AA6)  returns 0x00000002 (0000ms, 4387ms total)
T19AC 454:336 JLINK_ClrBPEx(BPHandle = 0x00000002)  returns 0x00 (0000ms, 4387ms total)
T19AC 454:336 JLINK_FindBP(Addr = 0x0040437A)  returns 0x00000003 (0000ms, 4387ms total)
T19AC 454:336 JLINK_ClrBPEx(BPHandle = 0x00000003)  returns 0x00 (0000ms, 4387ms total)
T19AC 454:336 JLINK_FindBP(Addr = 0x004045BE)  returns 0x00000004 (0000ms, 4387ms total)
T19AC 454:336 JLINK_ClrBPEx(BPHandle = 0x00000004)  returns 0x00 (0000ms, 4387ms total)
T19AC 454:336 JLINK_FindBP(Addr = 0x00404004)  returns 0x00000005 (0000ms, 4387ms total)
T19AC 454:336 JLINK_ClrBPEx(BPHandle = 0x00000005)  returns 0x00 (0000ms, 4387ms total)
T19AC 454:336 JLINK_EndDownload()  returns 0x00 (0000ms, 4387ms total)
T19AC 454:406 JLINK_WriteVectorCatch(0x00000001) >0x1D8 JTAG>  returns 0x00 (0001ms, 4388ms total)
T19AC 454:407 JLINK_Reset() >0x288 JTAG> >0x260 JTAG> >0x1D8 JTAG> >0x1D0 JTAG> >0x2C8 JTAG> >0x1E8 JTAG> >0x1E8 JTAG> >0x218 JTAG> >0x218 JTAG> >0x170 JTAG> >0x1598 JTAG> >0x1D0 JTAG> >0x260 JTAG> >0x170 JTAG> >0x1598 JTAG> >0x1D0 JTAG> >0x1D8 JTAG> >0x1D8 JTAG> (0046ms, 4434ms total)
T19AC 454:453 JLINK_GoEx(MaxEmulInsts = 100, Flags = 0x01) >0x1D0 JTAG> >0x1D0 JTAG> >0x1D0 JTAG> >0x1D0 JTAG> >0x1D0 JTAG> >0x1D0 JTAG> >0x218 JTAG> >0x218 JTAG> (0010ms, 4444ms total)
T19AC 454:575 JLINK_Close() -- CPU is running >0x1D0 JTAG> -- CPU is running >0x1D0 JTAG> -- CPU is running >0x1D0 JTAG> -- CPU is running >0x1D0 JTAG> -- CPU is running >0x1D0 JTAG> -- CPU is running >0x1D0 JTAG> >0x78 JTAG> >0x08 JTAG> (0011ms, 4455ms total)
T19AC 454:575  (0011ms, 4455ms total)
T19AC 454:575 Closed (0011ms, 4455ms total)
